Title: Resistor test circuit
Date: Sun Jan 17 12:07:21  2021
Plotname: Transient Analysis
Flags: real
No. Variables: 4
No. Points: 21      
Variables:
	0	time	time
	1	v(vin)	voltage
	2	i(v.xj1.v1)	current
	3	i(@r.xr1.r1[i])	current
Values:
0		0.000000000000000e+00
	0.000000000000000e+00
	0.000000000000000e+00
	0.000000000000000e+00
1		1.000000000000000e-08
	0.000000000000000e+00
	0.000000000000000e+00
	0.000000000000000e+00
2		2.000000000000000e-08
	0.000000000000000e+00
	0.000000000000000e+00
	0.000000000000000e+00
3		4.000000000000000e-08
	0.000000000000000e+00
	0.000000000000000e+00
	0.000000000000000e+00
4		8.000000000000000e-08
	0.000000000000000e+00
	0.000000000000000e+00
	0.000000000000000e+00
5		1.600000000000000e-07
	0.000000000000000e+00
	0.000000000000000e+00
	0.000000000000000e+00
6		3.200000000000000e-07
	0.000000000000000e+00
	0.000000000000000e+00
	0.000000000000000e+00
7		6.400000000000000e-07
	0.000000000000000e+00
	0.000000000000000e+00
	0.000000000000000e+00
8		1.280000000000000e-06
	0.000000000000000e+00
	0.000000000000000e+00
	0.000000000000000e+00
9		2.560000000000000e-06
	0.000000000000000e+00
	0.000000000000000e+00
	0.000000000000000e+00
10		5.120000000000000e-06
	0.000000000000000e+00
	0.000000000000000e+00
	0.000000000000000e+00
11		1.024000000000000e-05
	1.185714512104541e-01
	-1.185714512104541e-04
	1.185714512104541e-04
12		2.024000000000000e-05
	3.204222793352977e+00
	-3.204222793352977e-03
	3.204222793352977e-03
13		3.024000000000000e-05
	4.339370484750280e+00
	-4.339370484750279e-03
	4.339370484750279e-03
14		4.023999999999999e-05
	4.756967983108572e+00
	-4.756967983108572e-03
	4.756967983108572e-03
15		5.023999999999999e-05
	4.910593517439213e+00
	-4.910593517439213e-03
	4.910593517439213e-03
16		6.023999999999999e-05
	4.967109193158433e+00
	-4.967109193158433e-03
	4.967109193158433e-03
17		7.023999999999999e-05
	4.987900148359446e+00
	-4.987900148359446e-03
	4.987900148359446e-03
18		8.023999999999999e-05
	4.995548713340216e+00
	-4.995548713340216e-03
	4.995548713340216e-03
19		9.023999999999999e-05
	4.998362463151105e+00
	-4.998362463151105e-03
	4.998362463151105e-03
20		9.999999999999999e-05
	4.999382950979567e+00
	-4.999382950979567e-03
	4.999382950979567e-03
